Frequency [Hz], |S02| [-], |S12| [-], |S22| [-], |S32| [-], Arg(S02) [-], Arg(S12) [-], Arg(S22) [-], Arg(S32) [-], Delay 2>0 [s], Delay 2>1 [s], Delay 2>2 [s], Delay 2>3 [s], |Z2| [Ohm] , Arg(Z2) [-]
2.000000e+08, 7.201084e-02, 2.737878e-02, 7.366963e-02, 1.015765e+00, 1.150928e+00, -2.190787e+00, 2.345788e+00, -5.427478e-01, 5.231785e-10, 6.725624e-10, 5.855899e-10, 4.260709e-10, 4.511086e+01, 1.054450e-01
2.038000e+08, 7.297499e-02, 2.782402e-02, 7.307902e-02, 1.015307e+00, 1.138436e+00, -2.206845e+00, 2.331806e+00, -5.529207e-01, 5.203129e-10, 6.679099e-10, 5.926084e-10, 4.253160e-10, 4.521469e+01, 1.060082e-01
2.076000e+08, 7.392886e-02, 2.826571e-02, 7.248032e-02, 1.014858e+00, 1.126013e+00, -2.222792e+00, 2.317657e+00, -5.630756e-01, 5.174436e-10, 6.634011e-10, 5.997256e-10, 4.245900e-10, 4.531985e+01, 1.065327e-01
2.114000e+08, 7.487254e-02, 2.870381e-02, 7.187364e-02, 1.014416e+00, 1.113659e+00, -2.238632e+00, 2.303338e+00, -5.732131e-01, 5.145748e-10, 6.590285e-10, 6.069584e-10, 4.238926e-10, 4.542630e+01, 1.070173e-01
2.152000e+08, 7.580613e-02, 2.913832e-02, 7.125907e-02, 1.013982e+00, 1.101373e+00, -2.254367e+00, 2.288846e+00, -5.833340e-01, 5.117103e-10, 6.547849e-10, 6.143236e-10, 4.232234e-10, 4.553401e+01, 1.074612e-01
2.190000e+08, 7.672974e-02, 2.956921e-02, 7.063674e-02, 1.013558e+00, 1.089155e+00, -2.270000e+00, 2.274179e+00, -5.934390e-01, 5.088538e-10, 6.506633e-10, 6.218380e-10, 4.225823e-10, 4.564295e+01, 1.078635e-01
2.228000e+08, 7.764347e-02, 2.999647e-02, 7.000675e-02, 1.013143e+00, 1.077006e+00, -2.285536e+00, 2.259332e+00, -6.035286e-01, 5.060089e-10, 6.466575e-10, 6.295183e-10, 4.219688e-10, 4.575307e+01, 1.082233e-01
2.266000e+08, 7.854739e-02, 3.042009e-02, 6.936925e-02, 1.012737e+00, 1.064924e+00, -2.300975e+00, 2.244301e+00, -6.136035e-01, 5.031788e-10, 6.427612e-10, 6.373814e-10, 4.213829e-10, 4.586436e+01, 1.085397e-01
2.304000e+08, 7.944161e-02, 3.084004e-02, 6.872435e-02, 1.012341e+00, 1.052910e+00, -2.316322e+00, 2.229083e+00, -6.236645e-01, 5.003666e-10, 6.389689e-10, 6.454444e-10, 4.208240e-10, 4.597676e+01, 1.088121e-01
2.342000e+08, 8.032620e-02, 3.125631e-02, 6.807221e-02, 1.011955e+00, 1.040963e+00, -2.331578e+00, 2.213672e+00, -6.337122e-01, 4.975751e-10, 6.352750e-10, 6.537247e-10, 4.202921e-10, 4.609025e+01, 1.090397e-01
2.380000e+08, 8.120126e-02, 3.166889e-02, 6.741297e-02, 1.011579e+00, 1.029083e+00, -2.346746e+00, 2.198064e+00, -6.437471e-01, 4.948069e-10, 6.316743e-10, 6.622400e-10, 4.197868e-10, 4.620479e+01, 1.092217e-01
2.418000e+08, 8.206687e-02, 3.207776e-02, 6.674679e-02, 1.011213e+00, 1.017269e+00, -2.361828e+00, 2.182252e+00, -6.537700e-01, 4.920645e-10, 6.281620e-10, 6.710085e-10, 4.193077e-10, 4.632033e+01, 1.093574e-01
2.456000e+08, 8.292309e-02, 3.248291e-02, 6.607383e-02, 1.010858e+00, 1.005521e+00, -2.376826e+00, 2.166231e+00, -6.637814e-01, 4.893503e-10, 6.247335e-10, 6.800488e-10, 4.188547e-10, 4.643685e+01, 1.094463e-01
2.494000e+08, 8.377002e-02, 3.288432e-02, 6.539427e-02, 1.010514e+00, 9.938369e-01, -2.391742e+00, 2.149994e+00, -6.737820e-01, 4.866664e-10, 6.213842e-10, 6.893804e-10, 4.184274e-10, 4.655430e+01, 1.094877e-01
2.532000e+08, 8.460773e-02, 3.328198e-02, 6.470829e-02, 1.010180e+00, 9.822172e-01, -2.406578e+00, 2.133534e+00, -6.837724e-01, 4.840147e-10, 6.181101e-10, 6.990232e-10, 4.180254e-10, 4.667263e+01, 1.094809e-01
2.570000e+08, 8.543628e-02, 3.367588e-02, 6.401608e-02, 1.009858e+00, 9.706608e-01, -2.421336e+00, 2.116844e+00, -6.937533e-01, 4.813972e-10, 6.149069e-10, 7.089979e-10, 4.176484e-10, 4.679182e+01, 1.094255e-01
2.608000e+08, 8.625575e-02, 3.406600e-02, 6.331785e-02, 1.009546e+00, 9.591669e-01, -2.436018e+00, 2.099916e+00, -7.037251e-01, 4.788154e-10, 6.117710e-10, 7.193259e-10, 4.172961e-10, 4.691182e+01, 1.093209e-01
2.646000e+08, 8.706621e-02, 3.445233e-02, 6.261382e-02, 1.009246e+00, 9.477346e-01, -2.450625e+00, 2.082742e+00, -7.136885e-01, 4.762711e-10, 6.086986e-10, 7.300299e-10, 4.169681e-10, 4.703258e+01, 1.091666e-01
2.684000e+08, 8.786771e-02, 3.483486e-02, 6.190420e-02, 1.008957e+00, 9.363631e-01, -2.465158e+00, 2.065311e+00, -7.236441e-01, 4.737656e-10, 6.056862e-10, 7.411331e-10, 4.166640e-10, 4.715407e+01, 1.089620e-01
2.722000e+08, 8.866034e-02, 3.521357e-02, 6.118925e-02, 1.008679e+00, 9.250515e-01, -2.479620e+00, 2.047616e+00, -7.335924e-01, 4.713002e-10, 6.027304e-10, 7.526600e-10, 4.163833e-10, 4.727623e+01, 1.087067e-01
2.760000e+08, 8.944413e-02, 3.558845e-02, 6.046920e-02, 1.008412e+00, 9.137986e-01, -2.494010e+00, 2.029645e+00, -7.435340e-01, 4.688763e-10, 5.998279e-10, 7.646362e-10, 4.161257e-10, 4.739903e+01, 1.084002e-01
2.798000e+08, 9.021917e-02, 3.595949e-02, 5.974433e-02, 1.008157e+00, 9.026037e-01, -2.508332e+00, 2.011389e+00, -7.534694e-01, 4.664948e-10, 5.969756e-10, 7.770882e-10, 4.158908e-10, 4.752242e+01, 1.080422e-01
2.836000e+08, 9.098549e-02, 3.632668e-02, 5.901492e-02, 1.007913e+00, 8.914656e-01, -2.522585e+00, 1.992835e+00, -7.633993e-01, 4.641568e-10, 5.941705e-10, 7.900441e-10, 4.156780e-10, 4.764635e+01, 1.076321e-01
2.874000e+08, 9.174316e-02, 3.669000e-02, 5.828126e-02, 1.007680e+00, 8.803834e-01, -2.536772e+00, 1.973972e+00, -7.733241e-01, 4.618631e-10, 5.914098e-10, 8.035330e-10, 4.154870e-10, 4.777077e+01, 1.071698e-01
2.912000e+08, 9.249223e-02, 3.704944e-02, 5.754368e-02, 1.007458e+00, 8.693559e-01, -2.550892e+00, 1.954787e+00, -7.832443e-01, 4.596148e-10, 5.886905e-10, 8.175856e-10, 4.153172e-10, 4.789564e+01, 1.066546e-01
2.950000e+08, 9.323275e-02, 3.740499e-02, 5.680250e-02, 1.007248e+00, 8.583821e-01, -2.564948e+00, 1.935266e+00, -7.931604e-01, 4.574123e-10, 5.860099e-10, 8.322338e-10, 4.151681e-10, 4.802090e+01, 1.060864e-01
2.988000e+08, 9.396476e-02, 3.775664e-02, 5.605807e-02, 1.007048e+00, 8.474609e-01, -2.578940e+00, 1.915395e+00, -8.030730e-01, 4.552564e-10, 5.833656e-10, 8.475110e-10, 4.150393e-10, 4.814651e+01, 1.054648e-01
3.026000e+08, 9.468831e-02, 3.810438e-02, 5.531078e-02, 1.006859e+00, 8.365911e-01, -2.592868e+00, 1.895160e+00, -8.129826e-01, 4.531477e-10, 5.807548e-10, 8.634520e-10, 4.149302e-10, 4.827242e+01, 1.047896e-01
3.064000e+08, 9.540345e-02, 3.844819e-02, 5.456101e-02, 1.006681e+00, 8.257717e-01, -2.606734e+00, 1.874544e+00, -8.228895e-01, 4.510867e-10, 5.781751e-10, 8.800930e-10, 4.148404e-10, 4.839856e+01, 1.040603e-01
3.102000e+08, 9.611020e-02, 3.878807e-02, 5.380920e-02, 1.006514e+00, 8.150015e-01, -2.620539e+00, 1.853531e+00, -8.327942e-01, 4.490737e-10, 5.756242e-10, 8.974718e-10, 4.147692e-10, 4.852490e+01, 1.032769e-01
3.140000e+08, 9.680861e-02, 3.912400e-02, 5.305578e-02, 1.006357e+00, 8.042794e-01, -2.634283e+00, 1.832103e+00, -8.426973e-01, 4.471090e-10, 5.730997e-10, 9.156273e-10, 4.147161e-10, 4.865137e+01, 1.024390e-01
3.178000e+08, 9.749871e-02, 3.945597e-02, 5.230124e-02, 1.006211e+00, 7.936042e-01, -2.647966e+00, 1.810241e+00, -8.525991e-01, 4.451931e-10, 5.705993e-10, 9.346000e-10, 4.146806e-10, 4.877792e+01, 1.015464e-01
3.216000e+08, 9.818054e-02, 3.978398e-02, 5.154607e-02, 1.006074e+00, 7.829747e-01, -2.661590e+00, 1.787927e+00, -8.625001e-01, 4.433261e-10, 5.681209e-10, 9.544314e-10, 4.146622e-10, 4.890449e+01, 1.005990e-01
3.254000e+08, 9.885411e-02, 4.010801e-02, 5.079083e-02, 1.005948e+00, 7.723898e-01, -2.675154e+00, 1.765139e+00, -8.724006e-01, 4.415081e-10, 5.656623e-10, 9.751639e-10, 4.146601e-10, 4.903103e+01, 9.959653e-02
3.292000e+08, 9.951947e-02, 4.042806e-02, 5.003607e-02, 1.005831e+00, 7.618483e-01, -2.688660e+00, 1.741855e+00, -8.823011e-01, 4.397392e-10, 5.632214e-10, 9.968408e-10, 4.146740e-10, 4.915748e+01, 9.853893e-02
3.330000e+08, 1.001766e-01, 4.074411e-02, 4.928242e-02, 1.005725e+00, 7.513490e-01, -2.702107e+00, 1.718055e+00, -8.922019e-01, 4.380195e-10, 5.607962e-10, 1.019506e-09, 4.147031e-10, 4.928378e+01, 9.742603e-02
3.368000e+08, 1.008256e-01, 4.105615e-02, 4.853052e-02, 1.005627e+00, 7.408908e-01, -2.715497e+00, 1.693713e+00, -9.021034e-01, 4.363490e-10, 5.583848e-10, 1.043203e-09, 4.147470e-10, 4.940986e+01, 9.625775e-02
3.406000e+08, 1.014664e-01, 4.136419e-02, 4.778106e-02, 1.005539e+00, 7.304725e-01, -2.728829e+00, 1.668805e+00, -9.120059e-01, 4.347275e-10, 5.559851e-10, 1.067975e-09, 4.148050e-10, 4.953567e+01, 9.503400e-02
3.444000e+08, 1.020990e-01, 4.166821e-02, 4.703478e-02, 1.005460e+00, 7.200929e-01, -2.742104e+00, 1.643306e+00, -9.219098e-01, 4.331549e-10, 5.535954e-10, 1.093865e-09, 4.148766e-10, 4.966115e+01, 9.375472e-02
3.482000e+08, 1.027235e-01, 4.196820e-02, 4.629246e-02, 1.005389e+00, 7.097509e-01, -2.755322e+00, 1.617189e+00, -9.318155e-01, 4.316312e-10, 5.512138e-10, 1.120912e-09, 4.149611e-10, 4.978623e+01, 9.241989e-02
3.520000e+08, 1.033399e-01, 4.226415e-02, 4.555495e-02, 1.005327e+00, 6.994452e-01, -2.768482e+00, 1.590426e+00, -9.417231e-01, 4.301559e-10, 5.488384e-10, 1.149156e-09, 4.150580e-10, 4.991085e+01, 9.102950e-02
3.558000e+08, 1.039481e-01, 4.255607e-02, 4.482312e-02, 1.005274e+00, 6.891747e-01, -2.781587e+00, 1.562989e+00, -9.516331e-01, 4.287289e-10, 5.464677e-10, 1.178629e-09, 4.151667e-10, 5.003494e+01, 8.958357e-02
3.596000e+08, 1.045482e-01, 4.284395e-02, 4.409794e-02, 1.005228e+00, 6.789384e-01, -2.794634e+00, 1.534848e+00, -9.615457e-01, 4.273499e-10, 5.440998e-10, 1.209360e-09, 4.152867e-10, 5.015844e+01, 8.808213e-02
3.634000e+08, 1.051402e-01, 4.312778e-02, 4.338041e-02, 1.005190e+00, 6.687349e-01, -2.807625e+00, 1.505973e+00, -9.714611e-01, 4.260185e-10, 5.417330e-10, 1.241372e-09, 4.154172e-10, 5.028127e+01, 8.652525e-02
3.672000e+08, 1.057240e-01, 4.340755e-02, 4.267160e-02, 1.005159e+00, 6.585633e-01, -2.820560e+00, 1.476334e+00, -9.813796e-01, 4.247343e-10, 5.393659e-10, 1.274677e-09, 4.155578e-10, 5.040338e+01, 8.491303e-02
3.710000e+08, 1.062997e-01, 4.368328e-02, 4.197266e-02, 1.005136e+00, 6.484223e-01, -2.833438e+00, 1.445899e+00, -9.913015e-01, 4.234969e-10, 5.369968e-10, 1.309280e-09, 4.157078e-10, 5.052470e+01, 8.324559e-02
3.748000e+08, 1.068672e-01, 4.395495e-02, 4.128479e-02, 1.005120e+00, 6.383108e-01, -2.846259e+00, 1.414639e+00, -1.001227e+00, 4.223057e-10, 5.346242e-10, 1.345169e-09, 4.158668e-10, 5.064515e+01, 8.152306e-02
3.786000e+08, 1.074265e-01, 4.422256e-02, 4.060928e-02, 1.005110e+00, 6.282278e-01, -2.859024e+00, 1.382521e+00, -1.011156e+00, 4.211603e-10, 5.322466e-10, 1.382320e-09, 4.160341e-10, 5.076466e+01, 7.974562e-02
3.824000e+08, 1.079776e-01, 4.448612e-02, 3.994749e-02, 1.005107e+00, 6.181721e-01, -2.871732e+00, 1.349517e+00, -1.021090e+00, 4.200601e-10, 5.298625e-10, 1.420688e-09, 4.162092e-10, 5.088316e+01, 7.791347e-02
3.862000e+08, 1.085205e-01, 4.474562e-02, 3.930085e-02, 1.005110e+00, 6.081427e-01, -2.884383e+00, 1.315597e+00, -1.031027e+00, 4.190045e-10, 5.274705e-10, 1.460208e-09, 4.163915e-10, 5.100059e+01, 7.602684e-02
3.900000e+08, 1.090552e-01, 4.500107e-02, 3.867087e-02, 1.005119e+00, 5.981385e-01, -2.896977e+00, 1.280732e+00, -1.040969e+00, 4.179929e-10, 5.250693e-10, 1.500790e-09, 4.165804e-10, 5.111686e+01, 7.408598e-02
3.938000e+08, 1.095815e-01, 4.525248e-02, 3.805914e-02, 1.005133e+00, 5.881585e-01, -2.909513e+00, 1.244899e+00, -1.050915e+00, 4.170247e-10, 5.226575e-10, 1.542314e-09, 4.167755e-10, 5.123191e+01, 7.209118e-02
3.976000e+08, 1.100995e-01, 4.549984e-02, 3.746733e-02, 1.005153e+00, 5.782016e-01, -2.921992e+00, 1.208075e+00, -1.060866e+00, 4.160991e-10, 5.202338e-10, 1.584630e-09, 4.169762e-10, 5.134565e+01, 7.004274e-02
4.014000e+08, 1.106092e-01, 4.574316e-02, 3.689718e-02, 1.005177e+00, 5.682667e-01, -2.934413e+00, 1.170240e+00, -1.070822e+00, 4.152155e-10, 5.177970e-10, 1.627553e-09, 4.171820e-10, 5.145803e+01, 6.794101e-02
4.052000e+08, 1.111105e-01, 4.598246e-02, 3.635048e-02, 1.005207e+00, 5.583530e-01, -2.946776e+00, 1.131381e+00, -1.080783e+00, 4.143731e-10, 5.153458e-10, 1.670859e-09, 4.173923e-10, 5.156895e+01, 6.578637e-02
4.090000e+08, 1.116034e-01, 4.621774e-02, 3.582910e-02, 1.005241e+00, 5.484594e-01, -2.959081e+00, 1.091487e+00, -1.090748e+00, 4.135712e-10, 5.128792e-10, 1.714284e-09, 4.176067e-10, 5.167835e+01, 6.357921e-02
4.128000e+08, 1.120877e-01, 4.644901e-02, 3.533496e-02, 1.005279e+00, 5.385849e-01, -2.971326e+00, 1.050556e+00, -1.100719e+00, 4.128088e-10, 5.103959e-10, 1.757526e-09, 4.178247e-10, 5.178615e+01, 6.131997e-02
4.166000e+08, 1.125636e-01, 4.667628e-02, 3.487003e-02, 1.005320e+00, 5.287286e-01, -2.983513e+00, 1.008594e+00, -1.110695e+00, 4.120853e-10, 5.078949e-10, 1.800237e-09, 4.180457e-10, 5.189228e+01, 5.900912e-02
4.204000e+08, 1.130308e-01, 4.689958e-02, 3.443629e-02, 1.005366e+00, 5.188897e-01, -2.995639e+00, 9.656110e-01, -1.120676e+00, 4.113998e-10, 5.053751e-10, 1.842035e-09, 4.182693e-10, 5.199665e+01, 5.664715e-02
4.242000e+08, 1.134894e-01, 4.711890e-02, 3.403574e-02, 1.005415e+00, 5.090670e-01, -3.007706e+00, 9.216303e-01, -1.130663e+00, 4.107514e-10, 5.028356e-10, 1.882501e-09, 4.184951e-10, 5.209918e+01, 5.423459e-02
4.280000e+08, 1.139393e-01, 4.733427e-02, 3.367039e-02, 1.005467e+00, 4.992599e-01, -3.019711e+00, 8.766836e-01, -1.140655e+00, 4.101391e-10, 5.002753e-10, 1.921184e-09, 4.187226e-10, 5.219982e+01, 5.177201e-02
4.318000e+08, 1.143804e-01, 4.754572e-02, 3.334219e-02, 1.005521e+00, 4.894674e-01, -3.031656e+00, 8.308132e-01, -1.150653e+00, 4.095622e-10, 4.976934e-10, 1.957618e-09, 4.189513e-10, 5.229846e+01, 4.926000e-02
4.356000e+08, 1.148127e-01, 4.775325e-02, 3.305306e-02, 1.005578e+00, 4.796886e-01, -3.043539e+00, 7.840729e-01, -1.160655e+00, 4.090196e-10, 4.950889e-10, 1.991322e-09, 4.191808e-10, 5.239505e+01, 4.669918e-02
4.394000e+08, 1.152361e-01, 4.795690e-02, 3.280485e-02, 1.005638e+00, 4.699228e-01, -3.055360e+00, 7.365279e-01, -1.170664e+00, 4.085105e-10, 4.924611e-10, 2.021819e-09, 4.194107e-10, 5.248949e+01, 4.409022e-02
4.432000e+08, 1.156506e-01, 4.815668e-02, 3.259927e-02, 1.005699e+00, 4.601692e-01, -3.067118e+00, 6.882547e-01, -1.180678e+00, 4.080338e-10, 4.898092e-10, 2.048653e-09, 4.196407e-10, 5.258172e+01, 4.143380e-02
4.470000e+08, 1.160560e-01, 4.835263e-02, 3.243794e-02, 1.005762e+00, 4.504269e-01, -3.078813e+00, 6.393408e-01, -1.190697e+00, 4.075885e-10, 4.871325e-10, 2.071397e-09, 4.198702e-10, 5.267165e+01, 3.873067e-02
4.508000e+08, 1.164522e-01, 4.854476e-02, 3.232231e-02, 1.005827e+00, 4.406953e-01, -3.090443e+00, 5.898840e-01, -1.200722e+00, 4.071737e-10, 4.844303e-10, 2.089676e-09, 4.200990e-10, 5.275922e+01, 3.598158e-02
4.546000e+08, 1.168393e-01, 4.873313e-02, 3.225363e-02, 1.005893e+00, 4.309736e-01, -3.102010e+00, 5.399907e-01, -1.210752e+00, 4.067884e-10, 4.817018e-10, 2.103178e-09, 4.203266e-10, 5.284434e+01, 3.318733e-02
4.584000e+08, 1.172171e-01, 4.891775e-02, 3.223296e-02, 1.005960e+00, 4.212611e-01, -3.113511e+00, 4.897749e-01, -1.220788e+00, 4.064315e-10, 4.789467e-10, 2.111672e-09, 4.205527e-10, 5.292694e+01, 3.034875e-02
4.622000e+08, 1.175856e-01, 4.909866e-02, 3.226114e-02, 1.006027e+00, 4.115571e-01, -3.124946e+00, 4.393565e-01, -1.230829e+00, 4.061020e-10, 4.761643e-10, 2.115012e-09, 4.207770e-10, 5.300694e+01, 2.746670e-02
4.660000e+08, 1.179445e-01, 4.927589e-02, 3.233878e-02, 1.006095e+00, 4.018609e-01, -3.136315e+00, 3.888582e-01, -1.240876e+00, 4.057988e-10, 4.733542e-10, 2.113147e-09, 4.209992e-10, 5.308428e+01, 2.454208e-02
4.698000e+08, 1.182940e-01, 4.944950e-02, 3.246622e-02, 1.006164e+00, 3.921720e-01, 3.135568e+00, 3.384045e-01, -1.250928e+00, 4.055209e-10, 4.705159e-10, 2.106127e-09, 4.212189e-10, 5.315886e+01, 2.157583e-02
4.736000e+08, 1.186338e-01, 4.961951e-02, 3.264358e-02, 1.006232e+00, 3.824898e-01, 3.124334e+00, 2.881184e-01, -1.260985e+00, 4.052672e-10, 4.676491e-10, 2.094092e-09, 4.214357e-10, 5.323064e+01, 1.856892e-02
4.774000e+08, 1.189640e-01, 4.978598e-02, 3.287072e-02, 1.006300e+00, 3.728136e-01, 3.113169e+00, 2.381196e-01, -1.271047e+00, 4.050367e-10, 4.647534e-10, 2.077273e-09, 4.216496e-10, 5.329952e+01, 1.552234e-02
4.812000e+08, 1.192843e-01, 4.994895e-02, 3.314726e-02, 1.006368e+00, 3.631429e-01, 3.102072e+00, 1.885224e-01, -1.281114e+00, 4.048283e-10, 4.618287e-10, 2.055980e-09, 4.218601e-10, 5.336545e+01, 1.243713e-02
4.850000e+08, 1.195947e-01, 5.010847e-02, 3.347261e-02, 1.006436e+00, 3.534771e-01, 3.091045e+00, 1.394336e-01, -1.291187e+00, 4.046408e-10, 4.588747e-10, 2.030586e-09, 4.220669e-10, 5.342834e+01, 9.314364e-03
4.888000e+08, 1.198951e-01, 5.026459e-02, 3.384594e-02, 1.006503e+00, 3.438159e-01, 3.080089e+00, 9.095115e-02, -1.301264e+00, 4.044732e-10, 4.558913e-10, 2.001515e-09, 4.222700e-10, 5.348814e+01, 6.155143e-03
4.926000e+08, 1.201854e-01, 5.041737e-02, 3.426628e-02, 1.006568e+00, 3.341587e-01, 3.069204e+00, 4.316276e-02, -1.311346e+00, 4.043244e-10, 4.528785e-10, 1.969225e-09, 4.224689e-10, 5.354478e+01, 2.960603e-03
4.964000e+08, 1.204655e-01, 5.056685e-02, 3.473245e-02, 1.006633e+00, 3.245050e-01, 3.058391e+00, -3.854672e-03, -1.321433e+00, 4.041933e-10, 4.498361e-10, 1.934191e-09, 4.226635e-10, 5.359819e+01, -2.680872e-04
5.002000e+08, 1.207353e-01, 5.071311e-02, 3.524317e-02, 1.006696e+00, 3.148544e-01, 3.047651e+00, -5.003562e-02, -1.331525e+00, 4.040788e-10, 4.467644e-10, 1.896892e-09, 4.228537e-10, 5.364831e+01, -3.529726e-03
5.040000e+08, 1.209947e-01, 5.085619e-02, 3.579702e-02, 1.006758e+00, 3.052066e-01, 3.036984e+00, -9.532602e-02, -1.341621e+00, 4.039798e-10, 4.436634e-10, 1.857798e-09, 4.230391e-10, 5.369508e+01, -6.823081e-03
5.078000e+08, 1.212436e-01, 5.099618e-02, 3.639249e-02, 1.006818e+00, 2.955611e-01, 3.026391e+00, -1.396830e-01, -1.351721e+00, 4.038953e-10, 4.405332e-10, 1.817357e-09, 4.232196e-10, 5.373843e+01, -1.014689e-02
5.116000e+08, 1.214820e-01, 5.113312e-02, 3.702802e-02, 1.006876e+00, 2.859177e-01, 3.015873e+00, -1.830744e-01, -1.361826e+00, 4.038240e-10, 4.373743e-10, 1.775988e-09, 4.233950e-10, 5.377832e+01, -1.349985e-02
5.154000e+08, 1.217096e-01, 5.126710e-02, 3.770199e-02, 1.006932e+00, 2.762759e-01, 3.005430e+00, -2.254781e-01, -1.371935e+00, 4.037649e-10, 4.341868e-10, 1.734078e-09, 4.235652e-10, 5.381467e+01, -1.688064e-02
5.192000e+08, 1.219264e-01, 5.139818e-02, 3.841276e-02, 1.006987e+00, 2.666356e-01, 2.995063e+00, -2.668811e-01, -1.382048e+00, 4.037170e-10, 4.309712e-10, 1.691970e-09, 4.237300e-10, 5.384745e+01, -2.028791e-02
5.230000e+08, 1.221322e-01, 5.152644e-02, 3.915868e-02, 1.007039e+00, 2.569964e-01, 2.984773e+00, -3.072788e-01, -1.392165e+00, 4.036791e-10, 4.277280e-10, 1.649971e-09, 4.238893e-10, 5.387660e+01, -2.372026e-02
5.268000e+08, 1.223271e-01, 5.165196e-02, 3.993811e-02, 1.007088e+00, 2.473581e-01, 2.974561e+00, -3.466736e-01, -1.402286e+00, 4.036501e-10, 4.244577e-10, 1.608344e-09, 4.240429e-10, 5.390206e+01, -2.717630e-02
5.306000e+08, 1.225108e-01, 5.177481e-02, 4.074942e-02, 1.007135e+00, 2.377205e-01, 2.964427e+00, -3.850746e-01, -1.412410e+00, 4.036289e-10, 4.211610e-10, 1.567313e-09, 4.241909e-10, 5.392380e+01, -3.065458e-02
5.344000e+08, 1.226834e-01, 5.189507e-02, 4.159103e-02, 1.007180e+00, 2.280834e-01, 2.954371e+00, -4.224959e-01, -1.422539e+00, 4.036146e-10, 4.178386e-10, 1.527064e-09, 4.243329e-10, 5.394176e+01, -3.415364e-02
5.382000e+08, 1.228445e-01, 5.201284e-02, 4.246139e-02, 1.007221e+00, 2.184467e-01, 2.944395e+00, -4.589563e-01, -1.432670e+00, 4.036059e-10, 4.144911e-10, 1.487750e-09, 4.244691e-10, 5.395592e+01, -3.767198e-02
5.420000e+08, 1.229943e-01, 5.212820e-02, 4.335898e-02, 1.007260e+00, 2.088102e-01, 2.934498e+00, -4.944780e-01, -1.442805e+00, 4.036019e-10, 4.111196e-10, 1.449488e-09, 4.245992e-10, 5.396622e+01, -4.120810e-02
5.458000e+08, 1.231325e-01, 5.224125e-02, 4.428234e-02, 1.007296e+00, 1.991737e-01, 2.924682e+00, -5.290861e-01, -1.452942e+00, 4.036014e-10, 4.077250e-10, 1.412370e-09, 4.247232e-10, 5.397263e+01, -4.476046e-02
5.496000e+08, 1.232591e-01, 5.235206e-02, 4.523007e-02, 1.007329e+00, 1.895373e-01, 2.914947e+00, -5.628080e-01, -1.463083e+00, 4.036035e-10, 4.043082e-10, 1.376463e-09, 4.248411e-10, 5.397512e+01, -4.832749e-02
